T1C50 475:504.173   SEGGER J-Link V6.54c Log File
T1C50 475:504.286   DLL Compiled: Nov  7 2019 17:01:02
T1C50 475:504.294   Logging started @ 2019-12-30 07:34
T1C50 475:504.306 JLINK_SetWarnOutHandler(...)
T1C50 475:504.314 - 0.010ms
T1C50 475:504.323 JLINK_OpenEx(...)
T1C50 475:508.832   Firmware: J-Link V9 compiled May 17 2019 09:50:41
T1C50 475:527.854   Hardware: V9.40
T1C50 475:527.937   S/N: 59405563
T1C50 475:527.947   OEM: SEGGER
T1C50 475:527.957   Feature(s): RDI, GDB, FlashDL, FlashBP, JFlash
T1C50 475:531.938   TELNET listener socket opened on port 19021
T1C50 475:539.579   WEBSRV Starting webserver
T1C50 475:539.739   WEBSRV Webserver running on local port 19080
T1C50 475:539.756 - 35.436ms returns "O.K."
T1C50 475:540.898 JLINK_GetEmuCaps()
T1C50 475:540.907 - 0.012ms returns 0xB9FF7BBF
T1C50 475:540.933 JLINK_TIF_GetAvailable(...)
T1C50 475:541.894 - 0.986ms
T1C50 475:541.947 JLINK_SetErrorOutHandler(...)
T1C50 475:541.954 - 0.009ms
T1C50 475:541.967 JLINK_ExecCommand("ProjectFile = "F:\stm32\kfb_lvgl\git\MDK-ARM\JLinkSettings.ini"", ...). 
T1C50 475:544.625 - 2.689ms returns 0x00
T1C50 475:544.684 JLINK_ExecCommand("Device = STM32F439IGTx", ...). 
T1C50 475:545.289   Device "STM32F439IG" selected.
T1C50 475:545.861 - 1.173ms returns 0x00
T1C50 475:545.875 JLINK_ExecCommand("DisableConnectionTimeout", ...). 
T1C50 475:545.886 - 0.006ms returns 0x01
T1C50 475:545.902 JLINK_GetHardwareVersion()
T1C50 475:545.908 - 0.009ms returns 0x16F30
T1C50 475:545.935 JLINK_GetDLLVersion()  returns 65403
T1C50 475:545.945 JLINK_GetFirmwareString(...)
T1C50 475:545.952 - 0.009ms
T1C50 475:545.973 JLINK_GetDLLVersion()  returns 65403
T1C50 475:545.982 JLINK_GetCompileDateTime()
T1C50 475:545.988 - 0.009ms
T1C50 475:546.000 JLINK_GetFirmwareString(...)
T1C50 475:546.007 - 0.009ms
T1C50 475:546.018 JLINK_GetHardwareVersion()
T1C50 475:546.025 - 0.009ms returns 0x16F30
T1C50 475:546.048 JLINK_TIF_Select(JLINKARM_TIF_SWD)
T1C50 475:550.129 - 4.090ms returns 0x00
T1C50 475:550.151 JLINK_SetSpeed(5000)
T1C50 475:551.133 - 0.993ms
T1C50 475:551.162 JLINK_GetId()
T1C50 475:555.197   Found SW-DP with ID 0x2BA01477
T1C50 475:614.206   Found SW-DP with ID 0x2BA01477
T1C50 475:626.169   Scanning AP map to find all available APs
T1C50 475:638.178   AP[1]: Stopped AP scan as end of AP map has been reached
T1C50 475:638.204   AP[0]: AHB-AP (IDR: 0x24770011)
T1C50 475:638.218   Iterating through AP map to find AHB-AP to use
T1C50 475:660.175   AP[0]: Core found
T1C50 475:660.230   AP[0]: AHB-AP ROM base: 0xE00FF000
T1C50 475:670.174   CPUID register: 0x410FC241. Implementer code: 0x41 (ARM)
T1C50 475:670.201   Found Cortex-M4 r0p1, Little endian.
T1C50 475:773.173    -- Max. mem block: 0x00010F28
T1C50 475:773.242    -- CPU_ReadMem(4 bytes @ 0xE000EDF0)
T1C50 475:775.257    -- CPU_WriteMem(4 bytes @ 0xE000EDF0)
T1C50 475:776.739    -- CPU_ReadMem(4 bytes @ 0xE0002000)
T1C50 475:777.366   FPUnit: 6 code (BP) slots and 2 literal slots
T1C50 475:777.389    -- CPU_ReadMem(4 bytes @ 0xE000EDFC)
T1C50 475:778.199    -- CPU_WriteMem(4 bytes @ 0xE000EDFC)
T1C50 475:779.174    -- CPU_ReadMem(4 bytes @ 0xE0001000)
T1C50 475:780.173    -- CPU_WriteMem(4 bytes @ 0xE0001000)
T1C50 475:781.170    -- CPU_ReadMem(4 bytes @ 0xE000ED88)
T1C50 475:782.189    -- CPU_WriteMem(4 bytes @ 0xE000ED88)
T1C50 475:783.190    -- CPU_ReadMem(4 bytes @ 0xE000ED88)
T1C50 475:784.176    -- CPU_WriteMem(4 bytes @ 0xE000ED88)
T1C50 475:785.233   CoreSight components:
T1C50 475:785.280   ROMTbl[0] @ E00FF000
T1C50 475:785.293    -- CPU_ReadMem(16 bytes @ 0xE00FF000)
T1C50 475:786.171    -- CPU_ReadMem(16 bytes @ 0xE000EFF0)
T1C50 475:787.240    -- CPU_ReadMem(16 bytes @ 0xE000EFE0)
T1C50 475:788.261   ROMTbl[0][0]: E000E000, CID: B105E00D, PID: 000BB00C SCS-M7
T1C50 475:788.280    -- CPU_ReadMem(16 bytes @ 0xE0001FF0)
T1C50 475:789.219    -- CPU_ReadMem(16 bytes @ 0xE0001FE0)
T1C50 475:790.218   ROMTbl[0][1]: E0001000, CID: B105E00D, PID: 003BB002 DWT
T1C50 475:790.255    -- CPU_ReadMem(16 bytes @ 0xE0002FF0)
T1C50 475:791.217    -- CPU_ReadMem(16 bytes @ 0xE0002FE0)
T1C50 475:792.257   ROMTbl[0][2]: E0002000, CID: B105E00D, PID: 002BB003 FPB
T1C50 475:792.276    -- CPU_ReadMem(16 bytes @ 0xE0000FF0)
T1C50 475:793.235    -- CPU_ReadMem(16 bytes @ 0xE0000FE0)
T1C50 475:794.225   ROMTbl[0][3]: E0000000, CID: B105E00D, PID: 003BB001 ITM
T1C50 475:794.245    -- CPU_ReadMem(16 bytes @ 0xE00FF010)
T1C50 475:795.218    -- CPU_ReadMem(16 bytes @ 0xE0040FF0)
T1C50 475:796.192    -- CPU_ReadMem(16 bytes @ 0xE0040FE0)
T1C50 475:797.237   ROMTbl[0][4]: E0040000, CID: B105900D, PID: 000BB9A1 TPIU
T1C50 475:797.250    -- CPU_ReadMem(16 bytes @ 0xE0041FF0)
T1C50 475:798.209    -- CPU_ReadMem(16 bytes @ 0xE0041FE0)
T1C50 475:799.239   ROMTbl[0][5]: E0041000, CID: B105900D, PID: 000BB925 ETM
T1C50 475:801.232 - 250.084ms   returns 0x2BA01477
T1C50 475:801.271 JLINK_GetDLLVersion()  returns 65403
T1C50 475:801.404 JLINK_CORE_GetFound()
T1C50 475:801.421 - 0.020ms returns 0xE0000FF
T1C50 475:801.432 JLINK_GetDebugInfo(0x100 = JLINKARM_ROM_TABLE_ADDR_INDEX)
T1C50 475:801.441   Value=0xE00FF000
T1C50 475:801.450 - 0.021ms returns 0x00
T1C50 475:801.468 JLINK_GetDebugInfo(0x100 = JLINKARM_ROM_TABLE_ADDR_INDEX)
T1C50 475:801.476   Value=0xE00FF000
T1C50 475:801.485 - 0.020ms returns 0x00
T1C50 475:801.493 JLINK_GetDebugInfo(0x101 = JLINKARM_DEBUG_INFO_ETM_ADDR_INDEX)
T1C50 475:801.499   Value=0xE0041000
T1C50 475:801.509 - 0.019ms returns 0x00
T1C50 475:801.520   JLINK_ReadMemEx(0xE0041FD0, 0x0020 Bytes, ..., Flags = 0x02000004)
T1C50 475:801.537    -- CPU_ReadMem(32 bytes @ 0xE0041FD0)
T1C50 475:802.166   Data:  04 00 00 00 00 00 00 00 00 00 00 00 00 00 00 00 ...
T1C50 475:802.184 - 0.668ms returns 0x20
T1C50 475:802.194 JLINK_GetDebugInfo(0x102 = JLINKARM_DEBUG_INFO_MTB_ADDR_INDEX)
T1C50 475:802.201   Value=0x00000000
T1C50 475:802.210 - 0.019ms returns 0x00
T1C50 475:802.218 JLINK_GetDebugInfo(0x103 = JLINKARM_DEBUG_INFO_TPIU_ADDR_INDEX)
T1C50 475:802.224   Value=0xE0040000
T1C50 475:802.233 - 0.018ms returns 0x00
T1C50 475:802.240 JLINK_GetDebugInfo(0x104 = JLINKARM_DEBUG_INFO_ITM_ADDR_INDEX)
T1C50 475:802.247   Value=0xE0000000
T1C50 475:802.256 - 0.018ms returns 0x00
T1C50 475:802.263 JLINK_GetDebugInfo(0x105 = JLINKARM_DEBUG_INFO_DWT_ADDR_INDEX)
T1C50 475:802.270   Value=0xE0001000
T1C50 475:802.279 - 0.018ms returns 0x00
T1C50 475:802.286 JLINK_GetDebugInfo(0x106 = JLINKARM_DEBUG_INFO_FPB_ADDR_INDEX)
T1C50 475:802.292   Value=0xE0002000
T1C50 475:802.301 - 0.018ms returns 0x00
T1C50 475:802.308 JLINK_GetDebugInfo(0x107 = JLINKARM_DEBUG_INFO_NVIC_ADDR_INDEX)
T1C50 475:802.315   Value=0xE000E000
T1C50 475:802.324 - 0.018ms returns 0x00
T1C50 475:802.331 JLINK_GetDebugInfo(0x10C = JLINKARM_DEBUG_INFO_DBG_ADDR_INDEX)
T1C50 475:802.338   Value=0xE000EDF0
T1C50 475:802.346 - 0.018ms returns 0x00
T1C50 475:802.354 JLINK_GetDebugInfo(0x01 = Unknown)
T1C50 475:802.360   Value=0x00000001
T1C50 475:802.369 - 0.018ms returns 0x00
T1C50 475:802.379   JLINK_ReadMemU32(0xE000ED00, 0x0001 Items, ...)
T1C50 475:802.392    -- CPU_ReadMem(4 bytes @ 0xE000ED00)
T1C50 475:803.164   Data:  41 C2 0F 41
T1C50 475:803.177    - CPUID
T1C50 475:803.186 - 0.810ms returns 1
T1C50 475:803.194 JLINK_GetDebugInfo(0x10F = JLINKARM_DEBUG_INFO_HAS_CORTEX_M_SECURITY_EXT_INDEX)
T1C50 475:803.201   Value=0x00000000
T1C50 475:803.210 - 0.018ms returns 0x00
T1C50 475:803.221 JLINK_SetResetType(JLINKARM_CM3_RESET_TYPE_NORMAL)
T1C50 475:803.228 - 0.010ms returns JLINKARM_CM3_RESET_TYPE_NORMAL
T1C50 475:803.237 JLINK_Reset()
T1C50 475:803.248   CPU is running
T1C50 475:803.258    -- CPU_WriteMem(4 bytes @ 0xE000EDF0)
T1C50 475:804.164   CPU is running
T1C50 475:804.177    -- CPU_WriteMem(4 bytes @ 0xE000EDFC)
T1C50 475:805.174   Reset: Halt core after reset via DEMCR.VC_CORERESET.
T1C50 475:807.208   Reset: Reset device via AIRCR.SYSRESETREQ.
T1C50 475:807.239   CPU is running
T1C50 475:807.266    -- CPU_WriteMem(4 bytes @ 0xE000ED0C)
T1C50 475:861.246    -- CPU_ReadMem(4 bytes @ 0xE000EDF0)
T1C50 475:862.350    -- CPU_ReadMem(4 bytes @ 0xE000EDF0)
T1C50 475:863.266   CPU is running
T1C50 475:863.325    -- CPU_WriteMem(4 bytes @ 0xE000EDF0)
T1C50 475:864.245   CPU is running
T1C50 475:864.266    -- CPU_WriteMem(4 bytes @ 0xE000EDFC)
T1C50 475:870.062    -- CPU_ReadMem(4 bytes @ 0xE000EDF0)
T1C50 475:874.247    -- CPU_WriteMem(4 bytes @ 0xE0002000)
T1C50 475:875.238    -- CPU_ReadMem(4 bytes @ 0xE000EDFC)
T1C50 475:876.230    -- CPU_ReadMem(4 bytes @ 0xE0001000)
T1C50 475:877.261 - 74.065ms
T1C50 475:877.488 JLINK_ReadReg(R15 (PC))
T1C50 475:877.509 - 0.025ms returns 0x08000280
T1C50 475:877.519 JLINK_ReadReg(XPSR)
T1C50 475:877.528 - 0.012ms returns 0x01000000
T1C50 475:877.541 JLINK_Halt()
T1C50 475:877.548 - 0.009ms returns 0x00
T1C50 475:877.556   JLINK_ReadMemU32(0xE000EDF0, 0x0001 Items, ...)
T1C50 475:877.573    -- CPU_ReadMem(4 bytes @ 0xE000EDF0)
T1C50 475:878.238   Data:  03 00 03 00
T1C50 475:878.287    - DHCSR
T1C50 475:878.313 - 0.760ms returns 1
T1C50 475:878.327   JLINK_WriteU32(0xE000EDF0, 0xA05F0003)
T1C50 475:878.337    - DHCSR
T1C50 475:878.353    -- CPU_WriteMem(4 bytes @ 0xE000EDF0)
T1C50 475:879.237 - 0.934ms returns 0
T1C50 475:879.267   JLINK_WriteU32(0xE000EDFC, 0x01000000)
T1C50 475:879.293    - DEMCR
T1C50 475:879.340    -- CPU_WriteMem(4 bytes @ 0xE000EDFC)
T1C50 475:880.237 - 0.976ms returns 0
T1C50 475:880.278 JLINK_GetHWStatus(...)
T1C50 475:881.243 - 0.977ms returns 0x00
T1C50 475:881.283 JLINK_GetNumBPUnits(Type = 0xFFFFFF00)
T1C50 475:881.292 - 0.012ms returns 0x06
T1C50 475:881.300 JLINK_GetNumBPUnits(Type = 0xF0)
T1C50 475:881.306 - 0.009ms returns 0x2000
T1C50 475:881.315 JLINK_GetNumWPUnits()
T1C50 475:881.321 - 0.009ms returns 0x04
T1C50 475:881.337 JLINK_GetSpeed()
T1C50 475:881.344 - 0.010ms returns 0xFA0
T1C50 475:881.357   JLINK_ReadMemU32(0xE000E004, 0x0001 Items, ...)
T1C50 475:881.370    -- CPU_ReadMem(4 bytes @ 0xE000E004)
T1C50 475:882.238   Data:  02 00 00 00
T1C50 475:882.250 - 0.897ms returns 1
T1C50 475:882.259   JLINK_ReadMemU32(0xE000E004, 0x0001 Items, ...)
T1C50 475:882.270    -- CPU_ReadMem(4 bytes @ 0xE000E004)
T1C50 475:883.236   Data:  02 00 00 00
T1C50 475:883.249 - 0.994ms returns 1
T1C50 475:883.261 JLINK_WriteMemEx(0xE0001000, 0x001C Bytes, ..., Flags = 0x02000004)
T1C50 475:883.269   Data:  01 00 00 00 00 00 00 00 00 00 00 00 00 00 00 00 ...
T1C50 475:883.601    -- CPU_WriteMem(28 bytes @ 0xE0001000)
T1C50 475:884.242 - 1.005ms returns 0x1C
T1C50 475:884.293 JLINK_ReadReg(R15 (PC))
T1C50 475:884.301 - 0.012ms returns 0x08000280
T1C50 475:884.309 JLINK_ReadReg(XPSR)
T1C50 475:884.315 - 0.010ms returns 0x01000000
T1C50 476:073.943 JLINK_SetResetType(JLINKARM_CM3_RESET_TYPE_NORMAL)
T1C50 476:073.973 - 0.033ms returns JLINKARM_CM3_RESET_TYPE_NORMAL
T1C50 476:073.981 JLINK_Reset()
T1C50 476:074.017    -- CPU_WriteMem(4 bytes @ 0xE000EDF0)
T1C50 476:075.198    -- CPU_WriteMem(4 bytes @ 0xE000EDFC)
T1C50 476:076.236   Reset: Halt core after reset via DEMCR.VC_CORERESET.
T1C50 476:078.216   Reset: Reset device via AIRCR.SYSRESETREQ.
T1C50 476:078.243    -- CPU_WriteMem(4 bytes @ 0xE000ED0C)
T1C50 476:132.169    -- CPU_ReadMem(4 bytes @ 0xE000EDF0)
T1C50 476:133.166    -- CPU_ReadMem(4 bytes @ 0xE000EDF0)
T1C50 476:134.165    -- CPU_WriteMem(4 bytes @ 0xE000EDF0)
T1C50 476:135.164    -- CPU_WriteMem(4 bytes @ 0xE000EDFC)
T1C50 476:141.050    -- CPU_ReadMem(4 bytes @ 0xE000EDF0)
T1C50 476:145.381    -- CPU_WriteMem(4 bytes @ 0xE0002000)
T1C50 476:146.278    -- CPU_ReadMem(4 bytes @ 0xE000EDFC)
T1C50 476:147.269    -- CPU_ReadMem(4 bytes @ 0xE0001000)
T1C50 476:148.273 - 74.303ms
T1C50 476:148.396 JLINK_ReadReg(R15 (PC))
T1C50 476:148.424 - 0.031ms returns 0x08000280
T1C50 476:148.449 JLINK_ReadReg(XPSR)
T1C50 476:148.456 - 0.010ms returns 0x01000000
T1C50 476:262.361   JLINK_ReadMemEx(0x080001AC, 0x003C Bytes, ..., Flags = 0x02000000)
T1C50 476:262.470    -- CPU_ReadMem(128 bytes @ 0x08000180)
T1C50 476:263.760    -- Updating C cache (128 bytes @ 0x08000180)
T1C50 476:263.781    -- Read from C cache (60 bytes @ 0x080001AC)
T1C50 476:263.799   Data:  DF F8 0C D0 00 F0 20 F9 00 48 00 47 59 5B 01 08 ...
T1C50 476:263.809 - 1.453ms returns 0x3C
T1C50 476:263.826   JLINK_ReadMemEx(0x080001E8, 0x003C Bytes, ..., Flags = 0x02000000)
T1C50 476:263.839    -- CPU_ReadMem(64 bytes @ 0x08000200)
T1C50 476:264.756    -- Updating C cache (64 bytes @ 0x08000200)
T1C50 476:264.775    -- Read from C cache (60 bytes @ 0x080001E8)
T1C50 476:264.786   Data:  08 88 4F F0 00 00 80 F3 14 88 62 B6 61 B6 BF F3 ...
T1C50 476:264.795 - 0.973ms returns 0x3C
T1C50 476:264.810   JLINK_ReadMemEx(0x08000224, 0x003C Bytes, ..., Flags = 0x02000000)
T1C50 476:264.822    -- CPU_ReadMem(64 bytes @ 0x08000240)
T1C50 476:265.752    -- Updating C cache (64 bytes @ 0x08000240)
T1C50 476:265.771    -- Read from C cache (60 bytes @ 0x08000224)
T1C50 476:265.782   Data:  13 4B 1A 68 1E F0 10 0F 08 BF 20 ED 10 8A 20 E9 ...
T1C50 476:265.791 - 0.985ms returns 0x3C
T1C50 476:265.806   JLINK_ReadMemEx(0x08000260, 0x003C Bytes, ..., Flags = 0x02000000)
T1C50 476:265.818    -- CPU_ReadMem(64 bytes @ 0x08000280)
T1C50 476:266.752    -- Updating C cache (64 bytes @ 0x08000280)
T1C50 476:266.771    -- Read from C cache (60 bytes @ 0x08000260)
T1C50 476:266.782   Data:  1E F0 10 0F 08 BF B0 EC 10 8A 80 F3 09 88 BF F3 ...
T1C50 476:266.791 - 0.989ms returns 0x3C
T1C50 477:229.342 JLINK_ReadReg(R0)
T1C50 477:230.450 - 1.123ms returns 0x00000000
T1C50 477:230.488 JLINK_ReadReg(R1)
T1C50 477:230.495 - 0.011ms returns 0x00000000
T1C50 477:230.504 JLINK_ReadReg(R2)
T1C50 477:230.510 - 0.009ms returns 0x00000000
T1C50 477:230.518 JLINK_ReadReg(R3)
T1C50 477:230.524 - 0.009ms returns 0x00000000
T1C50 477:230.532 JLINK_ReadReg(R4)
T1C50 477:230.538 - 0.009ms returns 0x00000000
T1C50 477:230.546 JLINK_ReadReg(R5)
T1C50 477:230.552 - 0.009ms returns 0x00000000
T1C50 477:230.560 JLINK_ReadReg(R6)
T1C50 477:230.566 - 0.009ms returns 0x00000000
T1C50 477:230.574 JLINK_ReadReg(R7)
T1C50 477:230.580 - 0.009ms returns 0x00000000
T1C50 477:230.588 JLINK_ReadReg(R8)
T1C50 477:230.595 - 0.010ms returns 0x00000000
T1C50 477:230.602 JLINK_ReadReg(R9)
T1C50 477:230.609 - 0.010ms returns 0x00000000
T1C50 477:230.617 JLINK_ReadReg(R10)
T1C50 477:230.623 - 0.010ms returns 0x00000000
T1C50 477:230.631 JLINK_ReadReg(R11)
T1C50 477:230.638 - 0.010ms returns 0x00000000
T1C50 477:230.646 JLINK_ReadReg(R12)
T1C50 477:230.652 - 0.009ms returns 0x00000000
T1C50 477:230.660 JLINK_ReadReg(R13 (SP))
T1C50 477:230.667 - 0.009ms returns 0x200108E8
T1C50 477:230.674 JLINK_ReadReg(R14)
T1C50 477:230.681 - 0.009ms returns 0xFFFFFFFF
T1C50 477:230.689 JLINK_ReadReg(R15 (PC))
T1C50 477:230.696 - 0.010ms returns 0x08000280
T1C50 477:230.703 JLINK_ReadReg(XPSR)
T1C50 477:230.710 - 0.010ms returns 0x01000000
T1C50 477:230.717 JLINK_ReadReg(MSP)
T1C50 477:230.724 - 0.010ms returns 0x200108E8
T1C50 477:230.732 JLINK_ReadReg(PSP)
T1C50 477:230.739 - 0.009ms returns 0x00000000
T1C50 477:230.746 JLINK_ReadReg(CFBP)
T1C50 477:230.753 - 0.010ms returns 0x00000000
T1C50 477:230.760 JLINK_ReadReg(FPSCR)
T1C50 477:234.253 - 3.516ms returns 0x00000000
T1C50 477:234.283 JLINK_ReadReg(FPS0)
T1C50 477:234.290 - 0.010ms returns 0x00000000
T1C50 477:234.298 JLINK_ReadReg(FPS1)
T1C50 477:234.305 - 0.010ms returns 0x00000000
T1C50 477:234.313 JLINK_ReadReg(FPS2)
T1C50 477:234.320 - 0.010ms returns 0x00000000
T1C50 477:234.327 JLINK_ReadReg(FPS3)
T1C50 477:234.334 - 0.010ms returns 0x00000000
T1C50 477:234.342 JLINK_ReadReg(FPS4)
T1C50 477:234.348 - 0.009ms returns 0x00000000
T1C50 477:234.356 JLINK_ReadReg(FPS5)
T1C50 477:234.363 - 0.010ms returns 0x00000000
T1C50 477:234.370 JLINK_ReadReg(FPS6)
T1C50 477:234.377 - 0.009ms returns 0x00000000
T1C50 477:234.385 JLINK_ReadReg(FPS7)
T1C50 477:234.392 - 0.010ms returns 0x00000000
T1C50 477:234.399 JLINK_ReadReg(FPS8)
T1C50 477:234.406 - 0.010ms returns 0x00000000
T1C50 477:234.414 JLINK_ReadReg(FPS9)
T1C50 477:234.420 - 0.010ms returns 0x00000000
T1C50 477:234.428 JLINK_ReadReg(FPS10)
T1C50 477:234.435 - 0.074ms returns 0x00000000
T1C50 477:234.510 JLINK_ReadReg(FPS11)
T1C50 477:234.517 - 0.010ms returns 0x00000000
T1C50 477:234.525 JLINK_ReadReg(FPS12)
T1C50 477:234.547 - 0.025ms returns 0x00000000
T1C50 477:234.555 JLINK_ReadReg(FPS13)
T1C50 477:234.561 - 0.010ms returns 0x00000000
T1C50 477:234.569 JLINK_ReadReg(FPS14)
T1C50 477:234.576 - 0.010ms returns 0x00000000
T1C50 477:234.584 JLINK_ReadReg(FPS15)
T1C50 477:234.591 - 0.010ms returns 0x00000000
T1C50 477:234.598 JLINK_ReadReg(FPS16)
T1C50 477:234.605 - 0.009ms returns 0x00000000
T1C50 477:234.612 JLINK_ReadReg(FPS17)
T1C50 477:234.620 - 0.010ms returns 0x00000000
T1C50 477:234.627 JLINK_ReadReg(FPS18)
T1C50 477:234.634 - 0.010ms returns 0x00000000
T1C50 477:234.642 JLINK_ReadReg(FPS19)
T1C50 477:234.648 - 0.009ms returns 0x00000000
T1C50 477:234.655 JLINK_ReadReg(FPS20)
T1C50 477:234.662 - 0.009ms returns 0x00000000
T1C50 477:234.670 JLINK_ReadReg(FPS21)
T1C50 477:234.676 - 0.009ms returns 0x00000000
T1C50 477:234.684 JLINK_ReadReg(FPS22)
T1C50 477:234.690 - 0.010ms returns 0x00000000
T1C50 477:234.698 JLINK_ReadReg(FPS23)
T1C50 477:234.705 - 0.009ms returns 0x00000000
T1C50 477:234.712 JLINK_ReadReg(FPS24)
T1C50 477:234.719 - 0.009ms returns 0x00000000
T1C50 477:234.727 JLINK_ReadReg(FPS25)
T1C50 477:234.733 - 0.009ms returns 0x00000000
T1C50 477:234.741 JLINK_ReadReg(FPS26)
T1C50 477:234.747 - 0.009ms returns 0x00000000
T1C50 477:234.755 JLINK_ReadReg(FPS27)
T1C50 477:234.761 - 0.010ms returns 0x00000000
T1C50 477:234.769 JLINK_ReadReg(FPS28)
T1C50 477:234.776 - 0.009ms returns 0x00000000
T1C50 477:234.783 JLINK_ReadReg(FPS29)
T1C50 477:234.790 - 0.009ms returns 0x00000000
T1C50 477:234.798 JLINK_ReadReg(FPS30)
T1C50 477:234.804 - 0.009ms returns 0x00000000
T1C50 477:234.812 JLINK_ReadReg(FPS31)
T1C50 477:234.818 - 0.009ms returns 0x00000000
T1C50 477:234.831   JLINK_ReadMemEx(0x20000008, 0x0002 Bytes, ..., Flags = 0x02000000)
T1C50 477:234.846    -- CPU_ReadMem(64 bytes @ 0x20000000)
T1C50 477:236.304    -- Updating C cache (64 bytes @ 0x20000000)
T1C50 477:236.356    -- Read from C cache (2 bytes @ 0x20000008)
T1C50 477:236.366   Data:  25 93
T1C50 477:236.375 - 1.547ms returns 0x02
T1C50 477:239.260   JLINK_ReadMemEx(0x2000000C, 0x0004 Bytes, ..., Flags = 0x02000000)
T1C50 477:239.289    -- Read from C cache (4 bytes @ 0x2000000C)
T1C50 477:239.299   Data:  25 93 00 00
T1C50 477:239.308 - 0.052ms returns 0x04
T3938 477:298.082   JLINK_ReadMemEx(0x08000280, 0x0002 Bytes, ..., Flags = 0x02000000)
T3938 477:298.124    -- Read from C cache (2 bytes @ 0x08000280)
T3938 477:298.146   Data:  06 48
T3938 477:298.156 - 0.079ms returns 0x02
T3938 477:298.176   JLINK_SetBPEx(Addr = 0x08015B58, Type = 0xFFFFFFF2)
T3938 477:298.190 - 0.018ms returns 0x00000001
T3938 477:298.203 JLINK_Go()
T3938 477:298.235    -- CPU_WriteMem(4 bytes @ 0xE0002000)
T3938 477:299.389    -- CPU_ReadMem(4 bytes @ 0xE0001000)
T3938 477:300.370    -- CPU_WriteMem(4 bytes @ 0xE0002008)
T3938 477:300.391    -- CPU_WriteMem(4 bytes @ 0xE000200C)
T3938 477:300.401    -- CPU_WriteMem(4 bytes @ 0xE0002010)
T3938 477:300.411    -- CPU_WriteMem(4 bytes @ 0xE0002014)
T3938 477:300.421    -- CPU_WriteMem(4 bytes @ 0xE0002018)
T3938 477:300.430    -- CPU_WriteMem(4 bytes @ 0xE000201C)
T3938 477:302.373    -- CPU_WriteMem(4 bytes @ 0xE0001004)
T3938 477:304.389 - 6.209ms
T3938 477:404.560 JLINK_IsHalted()
T3938 477:407.681 - 3.135ms returns TRUE
T3938 477:407.704 JLINK_Halt()
T3938 477:407.711 - 0.010ms returns 0x00
T3938 477:407.719 JLINK_IsHalted()
T3938 477:407.726 - 0.010ms returns TRUE
T3938 477:407.752 JLINK_IsHalted()
T3938 477:407.759 - 0.009ms returns TRUE
T3938 477:407.766 JLINK_IsHalted()
T3938 477:407.773 - 0.009ms returns TRUE
T3938 477:407.782 JLINK_ReadReg(R15 (PC))
T3938 477:407.794 - 0.015ms returns 0x08015B58
T3938 477:407.802 JLINK_ReadReg(XPSR)
T3938 477:407.809 - 0.010ms returns 0x61000000
T3938 477:407.845 JLINK_ClrBPEx(BPHandle = 0x00000001)
T3938 477:407.853 - 0.011ms returns 0x00
T3938 477:407.864   JLINK_ReadMemU32(0xE000ED30, 0x0001 Items, ...)
T3938 477:407.883    -- CPU_ReadMem(4 bytes @ 0xE000ED30)
T3938 477:408.668   Data:  02 00 00 00
T3938 477:408.723 - 0.863ms returns 1
T3938 477:408.751   JLINK_ReadMemU32(0xE0001028, 0x0001 Items, ...)
T3938 477:408.764    -- CPU_ReadMem(4 bytes @ 0xE0001028)
T3938 477:409.726   Data:  00 00 00 00
T3938 477:409.752    - DWT_FUNC[0]
T3938 477:409.761 - 1.014ms returns 1
T3938 477:409.791   JLINK_ReadMemU32(0xE0001038, 0x0001 Items, ...)
T3938 477:409.806    -- CPU_ReadMem(4 bytes @ 0xE0001038)
T3938 477:410.715   Data:  00 02 00 00
T3938 477:410.737    - DWT_FUNC[1]
T3938 477:410.747 - 0.960ms returns 1
T3938 477:410.759   JLINK_ReadMemU32(0xE0001048, 0x0001 Items, ...)
T3938 477:410.773    -- CPU_ReadMem(4 bytes @ 0xE0001048)
T3938 477:411.689   Data:  00 00 00 00
T3938 477:411.710    - DWT_FUNC[2]
T3938 477:411.719 - 0.964ms returns 1
T3938 477:411.730   JLINK_ReadMemU32(0xE0001058, 0x0001 Items, ...)
T3938 477:411.761    -- CPU_ReadMem(4 bytes @ 0xE0001058)
T3938 477:412.672   Data:  00 00 00 00
T3938 477:412.726    - DWT_FUNC[3]
T3938 477:412.736 - 1.027ms returns 1
T3938 477:412.919 JLINK_ReadReg(R0)
T3938 477:412.946 - 0.076ms returns 0x08015B59
T3938 477:413.004 JLINK_ReadReg(R1)
T3938 477:413.013 - 0.013ms returns 0x200108E8
T3938 477:413.021 JLINK_ReadReg(R2)
T3938 477:413.028 - 0.010ms returns 0x00000000
T3938 477:413.054 JLINK_ReadReg(R3)
T3938 477:413.060 - 0.009ms returns 0x08002BFD
T3938 477:413.068 JLINK_ReadReg(R4)
T3938 477:413.091 - 0.025ms returns 0x0801B2E8
T3938 477:413.098 JLINK_ReadReg(R5)
T3938 477:413.120 - 0.025ms returns 0x0801B2E8
T3938 477:413.128 JLINK_ReadReg(R6)
T3938 477:413.134 - 0.009ms returns 0x00000000
T3938 477:413.141 JLINK_ReadReg(R7)
T3938 477:413.148 - 0.009ms returns 0x00000000
T3938 477:413.155 JLINK_ReadReg(R8)
T3938 477:413.161 - 0.009ms returns 0x00000000
T3938 477:413.169 JLINK_ReadReg(R9)
T3938 477:413.175 - 0.009ms returns 0x00000000
T3938 477:413.183 JLINK_ReadReg(R10)
T3938 477:413.189 - 0.009ms returns 0x00000000
T3938 477:413.196 JLINK_ReadReg(R11)
T3938 477:413.203 - 0.009ms returns 0x00000000
T3938 477:413.210 JLINK_ReadReg(R12)
T3938 477:413.217 - 0.009ms returns 0x00000000
T3938 477:413.224 JLINK_ReadReg(R13 (SP))
T3938 477:413.231 - 0.010ms returns 0x200108E8
T3938 477:413.238 JLINK_ReadReg(R14)
T3938 477:413.245 - 0.009ms returns 0x08000411
T3938 477:413.252 JLINK_ReadReg(R15 (PC))
T3938 477:413.258 - 0.009ms returns 0x08015B58
T3938 477:413.266 JLINK_ReadReg(XPSR)
T3938 477:413.272 - 0.009ms returns 0x61000000
T3938 477:413.280 JLINK_ReadReg(MSP)
T3938 477:413.286 - 0.009ms returns 0x200108E8
T3938 477:413.293 JLINK_ReadReg(PSP)
T3938 477:413.300 - 0.009ms returns 0x00000000
T3938 477:413.307 JLINK_ReadReg(CFBP)
T3938 477:413.314 - 0.009ms returns 0x00000000
T3938 477:413.322 JLINK_ReadReg(FPSCR)
T3938 477:416.894 - 3.604ms returns 0x00000000
T3938 477:416.976 JLINK_ReadReg(FPS0)
T3938 477:416.986 - 0.013ms returns 0x00000000
T3938 477:416.994 JLINK_ReadReg(FPS1)
T3938 477:417.016 - 0.025ms returns 0x00000000
T3938 477:417.024 JLINK_ReadReg(FPS2)
T3938 477:417.030 - 0.009ms returns 0x00000000
T3938 477:417.038 JLINK_ReadReg(FPS3)
T3938 477:417.044 - 0.009ms returns 0x00000000
T3938 477:417.052 JLINK_ReadReg(FPS4)
T3938 477:417.058 - 0.009ms returns 0x00000000
T3938 477:417.066 JLINK_ReadReg(FPS5)
T3938 477:417.072 - 0.009ms returns 0x00000000
T3938 477:417.080 JLINK_ReadReg(FPS6)
T3938 477:417.086 - 0.009ms returns 0x00000000
T3938 477:417.093 JLINK_ReadReg(FPS7)
T3938 477:417.100 - 0.009ms returns 0x00000000
T3938 477:417.107 JLINK_ReadReg(FPS8)
T3938 477:417.114 - 0.009ms returns 0x00000000
T3938 477:417.121 JLINK_ReadReg(FPS9)
T3938 477:417.127 - 0.009ms returns 0x00000000
T3938 477:417.134 JLINK_ReadReg(FPS10)
T3938 477:417.141 - 0.009ms returns 0x00000000
T3938 477:417.148 JLINK_ReadReg(FPS11)
T3938 477:417.155 - 0.009ms returns 0x00000000
T3938 477:417.162 JLINK_ReadReg(FPS12)
T3938 477:417.168 - 0.009ms returns 0x00000000
T3938 477:417.179 JLINK_ReadReg(FPS13)
T3938 477:417.187 - 0.011ms returns 0x00000000
T3938 477:417.194 JLINK_ReadReg(FPS14)
T3938 477:417.200 - 0.009ms returns 0x00000000
T3938 477:417.208 JLINK_ReadReg(FPS15)
T3938 477:417.214 - 0.009ms returns 0x00000000
T3938 477:417.222 JLINK_ReadReg(FPS16)
T3938 477:417.228 - 0.009ms returns 0x00000000
T3938 477:417.235 JLINK_ReadReg(FPS17)
T3938 477:417.242 - 0.009ms returns 0x00000000
T3938 477:417.249 JLINK_ReadReg(FPS18)
T3938 477:417.255 - 0.009ms returns 0x00000000
T3938 477:417.263 JLINK_ReadReg(FPS19)
T3938 477:417.269 - 0.009ms returns 0x00000000
T3938 477:417.277 JLINK_ReadReg(FPS20)
T3938 477:417.283 - 0.009ms returns 0x00000000
T3938 477:417.291 JLINK_ReadReg(FPS21)
T3938 477:417.297 - 0.009ms returns 0x00000000
T3938 477:417.304 JLINK_ReadReg(FPS22)
T3938 477:417.311 - 0.009ms returns 0x00000000
T3938 477:417.318 JLINK_ReadReg(FPS23)
T3938 477:417.325 - 0.009ms returns 0x00000000
T3938 477:417.332 JLINK_ReadReg(FPS24)
T3938 477:417.338 - 0.009ms returns 0x00000000
T3938 477:417.345 JLINK_ReadReg(FPS25)
T3938 477:417.352 - 0.009ms returns 0x00000000
T3938 477:417.359 JLINK_ReadReg(FPS26)
T3938 477:417.366 - 0.009ms returns 0x00000000
T3938 477:417.373 JLINK_ReadReg(FPS27)
T3938 477:417.379 - 0.009ms returns 0x00000000
T3938 477:417.387 JLINK_ReadReg(FPS28)
T3938 477:417.393 - 0.009ms returns 0x00000000
T3938 477:417.401 JLINK_ReadReg(FPS29)
T3938 477:417.407 - 0.009ms returns 0x00000000
T3938 477:417.414 JLINK_ReadReg(FPS30)
T3938 477:417.421 - 0.009ms returns 0x00000000
T3938 477:417.428 JLINK_ReadReg(FPS31)
T3938 477:417.435 - 0.009ms returns 0x00000000
T1C50 477:422.649   JLINK_ReadMemEx(0x20000008, 0x0002 Bytes, ..., Flags = 0x02000000)
T1C50 477:422.697    -- CPU_ReadMem(64 bytes @ 0x20000000)
T1C50 477:423.623    -- Updating C cache (64 bytes @ 0x20000000)
T1C50 477:423.653    -- Read from C cache (2 bytes @ 0x20000008)
T1C50 477:423.679   Data:  00 00
T1C50 477:423.688 - 1.045ms returns 0x02
T1C50 477:423.824   JLINK_ReadMemEx(0x2000000C, 0x0004 Bytes, ..., Flags = 0x02000000)
T1C50 477:423.841    -- Read from C cache (4 bytes @ 0x2000000C)
T1C50 477:423.850   Data:  00 00 00 00
T1C50 477:423.860 - 0.039ms returns 0x04
T1C50 477:427.812   JLINK_ReadMemEx(0x08015A58, 0x003C Bytes, ..., Flags = 0x02000000)
T1C50 477:427.928    -- CPU_ReadMem(128 bytes @ 0x08015A40)
T1C50 477:429.217    -- Updating C cache (128 bytes @ 0x08015A40)
T1C50 477:429.250    -- Read from C cache (60 bytes @ 0x08015A58)
T1C50 477:429.277   Data:  B3 EB 95 1F 13 D1 05 F0 3F 05 00 EB 05 30 52 1C ...
T1C50 477:429.286 - 1.478ms returns 0x3C
T1C50 477:429.301   JLINK_ReadMemEx(0x08015A94, 0x003C Bytes, ..., Flags = 0x02000000)
T1C50 477:429.312    -- CPU_ReadMem(64 bytes @ 0x08015AC0)
T1C50 477:430.199    -- Updating C cache (64 bytes @ 0x08015AC0)
T1C50 477:430.228    -- Read from C cache (60 bytes @ 0x08015A94)
T1C50 477:430.254   Data:  F8 B5 07 46 08 68 00 25 40 1E 0C 46 0D 4E 08 60 ...
T1C50 477:430.262 - 0.965ms returns 0x3C
T1C50 477:430.313   JLINK_ReadMemEx(0x08015AD0, 0x003C Bytes, ..., Flags = 0x02000000)
T1C50 477:430.325    -- CPU_ReadMem(64 bytes @ 0x08015B00)
T1C50 477:431.272    -- Updating C cache (64 bytes @ 0x08015B00)
T1C50 477:431.294    -- Read from C cache (60 bytes @ 0x08015AD0)
T1C50 477:431.305   Data:  F8 BD 00 20 F8 BD 00 00 30 0D 00 20 00 78 01 06 ...
T1C50 477:431.331 - 1.022ms returns 0x3C
T1C50 477:431.347   JLINK_ReadMemEx(0x08015B0C, 0x003C Bytes, ..., Flags = 0x02000000)
T1C50 477:431.359    -- CPU_ReadMem(64 bytes @ 0x08015B40)
T1C50 477:432.217    -- Updating C cache (64 bytes @ 0x08015B40)
T1C50 477:432.246    -- Read from C cache (60 bytes @ 0x08015B0C)
T1C50 477:432.256   Data:  2D E9 F0 47 1E 46 14 46 0D 46 82 46 DD F8 20 90 ...
T1C50 477:432.265 - 0.922ms returns 0x3C
T1C50 477:432.279   JLINK_ReadMemEx(0x08015B48, 0x003C Bytes, ..., Flags = 0x02000000)
T1C50 477:432.291    -- CPU_ReadMem(64 bytes @ 0x08015B80)
T1C50 477:433.202    -- Updating C cache (64 bytes @ 0x08015B80)
T1C50 477:433.224    -- Read from C cache (60 bytes @ 0x08015B48)
T1C50 477:433.235   Data:  44 46 00 2C E8 D1 20 46 BD E8 F0 87 38 46 FB E7 ...
T1C50 477:433.244 - 0.968ms returns 0x3C
T3938 478:689.752   JLINK_ReadMemEx(0x08015B58, 0x0002 Bytes, ..., Flags = 0x02000000)
T3938 478:689.838    -- Read from C cache (2 bytes @ 0x08015B58)
T3938 478:689.866   Data:  9C B0
T3938 478:689.892 - 0.144ms returns 0x02
T3938 478:689.942 JLINK_Go()
T3938 478:691.195    -- CPU_ReadMem(4 bytes @ 0xE0001000)
T3938 478:692.225    -- CPU_WriteMem(4 bytes @ 0xE0002008)
T3938 478:694.182 - 4.272ms
T3938 478:793.959 JLINK_IsHalted()
T3938 478:795.169 - 1.241ms returns FALSE
T3938 478:894.962 JLINK_IsHalted()
T3938 478:896.159 - 1.210ms returns FALSE
T3938 478:995.921 JLINK_IsHalted()
T3938 478:997.088 - 1.181ms returns FALSE
T3938 479:096.932 JLINK_IsHalted()
T3938 479:098.134 - 1.216ms returns FALSE
T3938 479:197.865 JLINK_IsHalted()
T3938 479:199.037 - 1.180ms returns FALSE
T3938 479:298.910   JLINK_ReadMemU32(0xE0001004, 0x0001 Items, ...)
T3938 479:299.001    -- CPU_ReadMem(4 bytes @ 0xE0001004)
T3938 479:300.124   Data:  EE 03 6C 05
T3938 479:300.138    - DWT_CYCCNT
T3938 479:300.147 - 1.241ms returns 1
T1C50 479:304.330   JLINK_ReadMemEx(0x20000008, 0x0002 Bytes, ..., Flags = 0x02000000)
T1C50 479:304.384    -- CPU_ReadMem(2 bytes @ 0x20000008)
T1C50 479:305.610   Data:  25 93
T1C50 479:305.630 - 1.305ms returns 0x02
T1C50 479:305.871   JLINK_ReadMemEx(0x2000000C, 0x0004 Bytes, ..., Flags = 0x02000000)
T1C50 479:305.927    -- CPU_ReadMem(4 bytes @ 0x2000000C)
T1C50 479:306.615   Data:  25 93 00 00
T1C50 479:306.633 - 0.766ms returns 0x04
T3938 479:306.926 JLINK_IsHalted()
T3938 479:307.607 - 0.692ms returns FALSE
T3938 479:407.360 JLINK_IsHalted()
T3938 479:408.489 - 1.143ms returns FALSE
T3938 479:508.533 JLINK_IsHalted()
T3938 479:509.721 - 1.237ms returns FALSE
T3938 479:609.470 JLINK_IsHalted()
T3938 479:610.657 - 1.210ms returns FALSE
T3938 479:710.426 JLINK_IsHalted()
T3938 479:711.692 - 1.296ms returns FALSE
T3938 479:811.407   JLINK_ReadMemU32(0xE0001004, 0x0001 Items, ...)
T3938 479:811.474   Data:  EE 03 6C 05
T3938 479:811.507    - DWT_CYCCNT
T3938 479:811.516 - 0.113ms returns 1
T1C50 479:815.368   JLINK_ReadMemEx(0x20000008, 0x0002 Bytes, ..., Flags = 0x02000000)
T1C50 479:815.405    -- CPU_ReadMem(2 bytes @ 0x20000008)
T1C50 479:816.611   Data:  25 93
T1C50 479:816.630 - 1.266ms returns 0x02
T1C50 479:816.777   JLINK_ReadMemEx(0x2000000C, 0x0004 Bytes, ..., Flags = 0x02000000)
T1C50 479:816.796    -- CPU_ReadMem(4 bytes @ 0x2000000C)
T1C50 479:817.610   Data:  25 93 00 00
T1C50 479:817.628 - 0.855ms returns 0x04
T3938 479:817.779 JLINK_IsHalted()
T3938 479:818.582 - 0.810ms returns FALSE
T3938 479:918.414 JLINK_IsHalted()
T3938 479:919.618 - 1.252ms returns FALSE
T3938 480:019.401 JLINK_IsHalted()
T3938 480:020.587 - 1.201ms returns FALSE
T3938 480:120.326 JLINK_IsHalted()
T3938 480:121.514 - 1.214ms returns FALSE
T3938 480:221.370 JLINK_IsHalted()
T3938 480:222.481 - 1.136ms returns FALSE
T3938 480:322.382   JLINK_ReadMemU32(0xE0001004, 0x0001 Items, ...)
T3938 480:322.422   Data:  EE 03 6C 05
T3938 480:322.432    - DWT_CYCCNT
T3938 480:322.442 - 0.063ms returns 1
T1C50 480:326.941   JLINK_ReadMemEx(0x20000008, 0x0002 Bytes, ..., Flags = 0x02000000)
T1C50 480:326.980    -- CPU_ReadMem(2 bytes @ 0x20000008)
T1C50 480:328.171   Data:  25 93
T1C50 480:328.192 - 1.255ms returns 0x02
T1C50 480:328.213   JLINK_ReadMemEx(0x2000000C, 0x0004 Bytes, ..., Flags = 0x02000000)
T1C50 480:328.227    -- CPU_ReadMem(4 bytes @ 0x2000000C)
T1C50 480:329.171   Data:  25 93 00 00
T1C50 480:329.190 - 0.980ms returns 0x04
T3938 480:329.254 JLINK_IsHalted()
T3938 480:330.188 - 0.946ms returns FALSE
T3938 480:429.911 JLINK_IsHalted()
T3938 480:431.106 - 1.227ms returns FALSE
T3938 480:530.834 JLINK_IsHalted()
T3938 480:532.007 - 1.181ms returns FALSE
T3938 480:631.851 JLINK_IsHalted()
T3938 480:633.011 - 1.172ms returns FALSE
T3938 480:732.883 JLINK_IsHalted()
T3938 480:734.170 - 1.300ms returns FALSE
T3938 480:833.879 JLINK_Halt()
T3938 480:837.050 - 3.181ms returns 0x00
T3938 480:837.068 JLINK_IsHalted()
T3938 480:837.093 - 0.028ms returns TRUE
T3938 480:837.117 JLINK_IsHalted()
T3938 480:837.123 - 0.009ms returns TRUE
T3938 480:837.130 JLINK_IsHalted()
T3938 480:837.137 - 0.009ms returns TRUE
T3938 480:837.147 JLINK_ReadReg(R15 (PC))
T3938 480:837.156 - 0.012ms returns 0x080161D2
T3938 480:837.164 JLINK_ReadReg(XPSR)
T3938 480:837.171 - 0.010ms returns 0x61000000
T3938 480:837.183   JLINK_ReadMemU32(0xE000ED30, 0x0001 Items, ...)
T3938 480:837.198    -- CPU_ReadMem(4 bytes @ 0xE000ED30)
T3938 480:838.048   Data:  01 00 00 00
T3938 480:838.061 - 0.881ms returns 1
T3938 480:838.071   JLINK_ReadMemU32(0xE0001028, 0x0001 Items, ...)
T3938 480:838.115    -- CPU_ReadMem(4 bytes @ 0xE0001028)
T3938 480:839.093   Data:  00 00 00 00
T3938 480:839.115    - DWT_FUNC[0]
T3938 480:839.142 - 1.075ms returns 1
T3938 480:839.153   JLINK_ReadMemU32(0xE0001038, 0x0001 Items, ...)
T3938 480:839.193    -- CPU_ReadMem(4 bytes @ 0xE0001038)
T3938 480:840.070   Data:  00 02 00 00
T3938 480:840.107    - DWT_FUNC[1]
T3938 480:840.117 - 0.967ms returns 1
T3938 480:840.127   JLINK_ReadMemU32(0xE0001048, 0x0001 Items, ...)
T3938 480:840.157    -- CPU_ReadMem(4 bytes @ 0xE0001048)
T3938 480:841.048   Data:  00 00 00 00
T3938 480:841.062    - DWT_FUNC[2]
T3938 480:841.072 - 0.948ms returns 1
T3938 480:841.082   JLINK_ReadMemU32(0xE0001058, 0x0001 Items, ...)
T3938 480:841.094    -- CPU_ReadMem(4 bytes @ 0xE0001058)
T3938 480:842.051   Data:  00 00 00 00
T3938 480:842.064    - DWT_FUNC[3]
T3938 480:842.074 - 0.995ms returns 1
T3938 480:842.135 JLINK_ReadReg(R0)
T3938 480:842.144 - 0.013ms returns 0x00000000
T3938 480:842.152 JLINK_ReadReg(R1)
T3938 480:842.159 - 0.010ms returns 0xA5A5A5A5
T3938 480:842.167 JLINK_ReadReg(R2)
T3938 480:842.174 - 0.010ms returns 0xA5A5A5A5
T3938 480:842.182 JLINK_ReadReg(R3)
T3938 480:842.188 - 0.009ms returns 0xA5A5A5A5
T3938 480:842.196 JLINK_ReadReg(R4)
T3938 480:842.202 - 0.009ms returns 0x20000038
T3938 480:842.210 JLINK_ReadReg(R5)
T3938 480:842.217 - 0.010ms returns 0xA5A5A5A5
T3938 480:842.225 JLINK_ReadReg(R6)
T3938 480:842.231 - 0.010ms returns 0x20003788
T3938 480:842.239 JLINK_ReadReg(R7)
T3938 480:842.245 - 0.009ms returns 0x200032EC
T3938 480:842.253 JLINK_ReadReg(R8)
T3938 480:842.260 - 0.010ms returns 0x10000000
T3938 480:842.268 JLINK_ReadReg(R9)
T3938 480:842.274 - 0.010ms returns 0xE000ED04
T3938 480:842.285 JLINK_ReadReg(R10)
T3938 480:842.292 - 0.010ms returns 0xA5A5A5A5
T3938 480:842.299 JLINK_ReadReg(R11)
T3938 480:842.306 - 0.009ms returns 0xA5A5A5A5
T3938 480:842.314 JLINK_ReadReg(R12)
T3938 480:842.320 - 0.010ms returns 0xA5A5A5A5
T3938 480:842.328 JLINK_ReadReg(R13 (SP))
T3938 480:842.335 - 0.010ms returns 0x20003B20
T3938 480:842.343 JLINK_ReadReg(R14)
T3938 480:842.350 - 0.010ms returns 0x080161ED
T3938 480:842.357 JLINK_ReadReg(R15 (PC))
T3938 480:842.364 - 0.010ms returns 0x080161D2
T3938 480:842.371 JLINK_ReadReg(XPSR)
T3938 480:842.378 - 0.009ms returns 0x61000000
T3938 480:842.386 JLINK_ReadReg(MSP)
T3938 480:842.392 - 0.009ms returns 0x200108C8
T3938 480:842.400 JLINK_ReadReg(PSP)
T3938 480:842.406 - 0.009ms returns 0x20003B20
T3938 480:842.414 JLINK_ReadReg(CFBP)
T3938 480:842.420 - 0.010ms returns 0x02000000
T3938 480:842.428 JLINK_ReadReg(FPSCR)
T3938 480:845.920 - 3.502ms returns 0x00000000
T3938 480:845.938 JLINK_ReadReg(FPS0)
T3938 480:845.946 - 0.012ms returns 0x00000000
T3938 480:845.954 JLINK_ReadReg(FPS1)
T3938 480:845.961 - 0.010ms returns 0x00000000
T3938 480:845.969 JLINK_ReadReg(FPS2)
T3938 480:845.975 - 0.009ms returns 0x00000000
T3938 480:845.983 JLINK_ReadReg(FPS3)
T3938 480:845.990 - 0.010ms returns 0x00000000
T3938 480:845.998 JLINK_ReadReg(FPS4)
T3938 480:846.004 - 0.009ms returns 0x00000000
T3938 480:846.012 JLINK_ReadReg(FPS5)
T3938 480:846.019 - 0.009ms returns 0x00000000
T3938 480:846.026 JLINK_ReadReg(FPS6)
T3938 480:846.036 - 0.014ms returns 0x00000000
T3938 480:846.045 JLINK_ReadReg(FPS7)
T3938 480:846.052 - 0.010ms returns 0x00000000
T3938 480:846.060 JLINK_ReadReg(FPS8)
T3938 480:846.066 - 0.010ms returns 0x00000000
T3938 480:846.074 JLINK_ReadReg(FPS9)
T3938 480:846.081 - 0.009ms returns 0x00000000
T3938 480:846.088 JLINK_ReadReg(FPS10)
T3938 480:846.095 - 0.009ms returns 0x00000000
T3938 480:846.103 JLINK_ReadReg(FPS11)
T3938 480:846.110 - 0.009ms returns 0x00000000
T3938 480:846.117 JLINK_ReadReg(FPS12)
T3938 480:846.124 - 0.009ms returns 0x00000000
T3938 480:846.132 JLINK_ReadReg(FPS13)
T3938 480:846.138 - 0.010ms returns 0x00000000
T3938 480:846.146 JLINK_ReadReg(FPS14)
T3938 480:846.153 - 0.009ms returns 0x00000000
T3938 480:846.160 JLINK_ReadReg(FPS15)
T3938 480:846.167 - 0.009ms returns 0x00000000
T3938 480:846.174 JLINK_ReadReg(FPS16)
T3938 480:846.181 - 0.009ms returns 0x00000000
T3938 480:846.188 JLINK_ReadReg(FPS17)
T3938 480:846.195 - 0.009ms returns 0x00000000
T3938 480:846.203 JLINK_ReadReg(FPS18)
T3938 480:846.210 - 0.010ms returns 0x00000000
T3938 480:846.217 JLINK_ReadReg(FPS19)
T3938 480:846.224 - 0.009ms returns 0x00000000
T3938 480:846.232 JLINK_ReadReg(FPS20)
T3938 480:846.238 - 0.010ms returns 0x00000000
T3938 480:846.246 JLINK_ReadReg(FPS21)
T3938 480:846.252 - 0.009ms returns 0x00000000
T3938 480:846.260 JLINK_ReadReg(FPS22)
T3938 480:846.267 - 0.009ms returns 0x00000000
T3938 480:846.274 JLINK_ReadReg(FPS23)
T3938 480:846.281 - 0.010ms returns 0x00000000
T3938 480:846.289 JLINK_ReadReg(FPS24)
T3938 480:846.296 - 0.009ms returns 0x00000000
T3938 480:846.303 JLINK_ReadReg(FPS25)
T3938 480:846.310 - 0.010ms returns 0x00000000
T3938 480:846.317 JLINK_ReadReg(FPS26)
T3938 480:846.324 - 0.009ms returns 0x00000000
T3938 480:846.332 JLINK_ReadReg(FPS27)
T3938 480:846.338 - 0.009ms returns 0x00000000
T3938 480:846.346 JLINK_ReadReg(FPS28)
T3938 480:846.352 - 0.009ms returns 0x00000000
T3938 480:846.359 JLINK_ReadReg(FPS29)
T3938 480:846.366 - 0.009ms returns 0x00000000
T3938 480:846.374 JLINK_ReadReg(FPS30)
T3938 480:846.380 - 0.009ms returns 0x00000000
T3938 480:846.388 JLINK_ReadReg(FPS31)
T3938 480:846.394 - 0.010ms returns 0x00000000
T1C50 480:847.484   JLINK_ReadMemEx(0x00000000, 0x0004 Bytes, ..., Flags = 0x02000000)
T1C50 480:847.509    -- CPU_ReadMem(4 bytes @ 0x40023844)
T1C50 480:848.590    -- CPU_ReadMem(4 bytes @ 0x40013800)
T1C50 480:849.634    -- CPU_ReadMem(64 bytes @ 0x08000000)
T1C50 480:850.614    -- Updating C cache (64 bytes @ 0x08000000)
T1C50 480:850.633    -- Read from C cache (4 bytes @ 0x08000000)
T1C50 480:850.643   Data:  E8 08 01 20
T1C50 480:850.653 - 3.172ms returns 0x04
T1C50 480:855.227   JLINK_ReadMemEx(0x20000008, 0x0002 Bytes, ..., Flags = 0x02000000)
T1C50 480:855.281    -- CPU_ReadMem(64 bytes @ 0x20000000)
T1C50 480:856.464    -- Updating C cache (64 bytes @ 0x20000000)
T1C50 480:856.485    -- Read from C cache (2 bytes @ 0x20000008)
T1C50 480:856.495   Data:  25 93
T1C50 480:856.505 - 1.283ms returns 0x02
T1C50 480:856.544   JLINK_ReadMemEx(0x2000000C, 0x0004 Bytes, ..., Flags = 0x02000000)
T1C50 480:856.557    -- Read from C cache (4 bytes @ 0x2000000C)
T1C50 480:856.583   Data:  25 93 00 00
T1C50 480:856.593 - 0.051ms returns 0x04
T1C50 480:861.094   JLINK_ReadMemEx(0x080161D2, 0x0002 Bytes, ..., Flags = 0x02000000)
T1C50 480:861.143    -- CPU_ReadMem(64 bytes @ 0x080161C0)
T1C50 480:862.507    -- Updating C cache (64 bytes @ 0x080161C0)
T1C50 480:862.547    -- Read from C cache (2 bytes @ 0x080161D2)
T1C50 480:862.558   Data:  00 28
T1C50 480:862.568 - 1.478ms returns 0x02
T1C50 480:862.598   JLINK_ReadMemEx(0x080161D4, 0x003C Bytes, ..., Flags = 0x02000000)
T1C50 480:862.612    -- CPU_ReadMem(64 bytes @ 0x08016200)
T1C50 480:863.439    -- Updating C cache (64 bytes @ 0x08016200)
T1C50 480:863.484    -- Read from C cache (60 bytes @ 0x080161D4)
T1C50 480:863.494   Data:  EA D1 38 68 01 28 05 D9 C9 F8 00 80 BF F3 4F 8F ...
T1C50 480:863.503 - 0.907ms returns 0x3C
T1C50 482:239.119   JLINK_ReadMemEx(0x080161D0, 0x003C Bytes, ..., Flags = 0x02000000)
T1C50 482:239.160    -- Read from C cache (60 bytes @ 0x080161D0)
T1C50 482:239.171   Data:  E0 68 00 28 EA D1 38 68 01 28 05 D9 C9 F8 00 80 ...
T1C50 482:239.180 - 0.066ms returns 0x3C
T1C50 486:300.178   JLINK_ReadMemEx(0x20000044, 0x0004 Bytes, ..., Flags = 0x02000000)
T1C50 486:300.218    -- CPU_ReadMem(64 bytes @ 0x20000040)
T1C50 486:301.319    -- Updating C cache (64 bytes @ 0x20000040)
T1C50 486:301.356    -- Read from C cache (4 bytes @ 0x20000044)
T1C50 486:301.367   Data:  00 00 00 00
T1C50 486:301.376 - 1.202ms returns 0x04
T1C50 507:461.783   JLINK_ReadMemU32(0xE0001004, 0x0001 Items, ...)
T1C50 507:461.823    -- CPU_ReadMem(4 bytes @ 0xE0001004)
T1C50 507:462.327   Data:  9A 13 26 13
T1C50 507:462.339    - DWT_CYCCNT
T1C50 507:462.348 - 0.569ms returns 1
T1C50 773:630.242   JLINK_ReadMemEx(0x08000280, 0x003C Bytes, ..., Flags = 0x02000000)
T1C50 773:630.320    -- CPU_ReadMem(64 bytes @ 0x08000280)
T1C50 773:631.608    -- Updating C cache (64 bytes @ 0x08000280)
T1C50 773:631.663    -- Read from C cache (60 bytes @ 0x08000280)
T1C50 773:631.689   Data:  06 48 80 47 06 48 00 47 FE E7 FE E7 FE E7 FE E7 ...
T1C50 773:631.709 - 1.476ms returns 0x3C
T1C50 775:093.164   JLINK_ReadMemEx(0x08015B58, 0x003C Bytes, ..., Flags = 0x02000000)
T1C50 775:093.216    -- CPU_ReadMem(128 bytes @ 0x08015B40)
T1C50 775:094.378    -- Updating C cache (128 bytes @ 0x08015B40)
T1C50 775:094.404    -- Read from C cache (60 bytes @ 0x08015B58)
T1C50 775:094.423   Data:  9C B0 EA F7 A3 FE EC F7 A7 FC EC F7 4D FB EC F7 ...
T1C50 775:094.438 - 1.281ms returns 0x3C
T3938 777:298.301   JLINK_ReadMemEx(0x080161D2, 0x0002 Bytes, ..., Flags = 0x02000000)
T3938 777:298.410    -- Read from C cache (2 bytes @ 0x080161D2)
T3938 777:298.448   Data:  00 28
T3938 777:298.482 - 0.197ms returns 0x02
T3938 777:298.525 JLINK_Go()
T3938 777:299.824    -- CPU_ReadMem(4 bytes @ 0xE0001000)
T3938 777:301.811 - 3.341ms
T3938 777:401.818 JLINK_IsHalted()
T3938 777:403.053 - 1.257ms returns FALSE
T3938 777:502.832 JLINK_IsHalted()
T3938 777:504.060 - 1.249ms returns FALSE
T3938 777:603.878 JLINK_IsHalted()
T3938 777:605.224 - 1.387ms returns FALSE
T3938 777:705.382 JLINK_IsHalted()
T3938 777:706.727 - 1.387ms returns FALSE
T3938 777:806.332   JLINK_ReadMemU32(0xE0001004, 0x0001 Items, ...)
T3938 777:806.433    -- CPU_ReadMem(4 bytes @ 0xE0001004)
T3938 777:807.687   Data:  6D AD AB 17
T3938 777:807.755    - DWT_CYCCNT
T3938 777:807.788 - 1.469ms returns 1
T1C50 777:817.009   JLINK_ReadMemEx(0x20000008, 0x0002 Bytes, ..., Flags = 0x02000000)
T1C50 777:817.108    -- CPU_ReadMem(2 bytes @ 0x20000008)
T1C50 777:818.506   Data:  25 93
T1C50 777:818.571 - 1.577ms returns 0x02
T1C50 777:818.641   JLINK_ReadMemEx(0x2000000C, 0x0004 Bytes, ..., Flags = 0x02000000)
T1C50 777:818.687    -- CPU_ReadMem(4 bytes @ 0x2000000C)
T1C50 777:819.546   Data:  25 93 00 00
T1C50 777:819.606 - 0.979ms returns 0x04
T3938 777:819.766 JLINK_IsHalted()
T3938 777:820.541 - 0.812ms returns FALSE
T3938 777:920.354 JLINK_IsHalted()
T3938 777:921.719 - 1.411ms returns FALSE
T3938 778:021.882 JLINK_IsHalted()
T3938 778:023.358 - 1.519ms returns FALSE
T3938 778:123.354 JLINK_IsHalted()
T3938 778:124.708 - 1.381ms returns FALSE
T3938 778:224.391 JLINK_IsHalted()
T3938 778:225.860 - 1.511ms returns FALSE
T3938 778:325.885   JLINK_ReadMemU32(0xE0001004, 0x0001 Items, ...)
T3938 778:325.946   Data:  6D AD AB 17
T3938 778:325.966    - DWT_CYCCNT
T3938 778:325.984 - 0.106ms returns 1
T1C50 778:331.479   JLINK_ReadMemEx(0x20000008, 0x0002 Bytes, ..., Flags = 0x02000000)
T1C50 778:331.550    -- CPU_ReadMem(2 bytes @ 0x20000008)
T1C50 778:332.962   Data:  25 93
T1C50 778:333.001 - 1.530ms returns 0x02
T1C50 778:333.044   JLINK_ReadMemEx(0x2000000C, 0x0004 Bytes, ..., Flags = 0x02000000)
T1C50 778:333.071    -- CPU_ReadMem(4 bytes @ 0x2000000C)
T1C50 778:333.905   Data:  25 93 00 00
T1C50 778:333.941 - 0.904ms returns 0x04
T3938 778:334.061 JLINK_IsHalted()
T3938 778:334.871 - 0.837ms returns FALSE
T3938 778:434.835 JLINK_IsHalted()
T3938 778:436.125 - 1.322ms returns FALSE
T3938 778:535.826 JLINK_IsHalted()
T3938 778:537.159 - 1.384ms returns FALSE
T3938 778:636.823 JLINK_IsHalted()
T3938 778:638.167 - 1.367ms returns FALSE
T3938 778:737.869 JLINK_IsHalted()
T3938 778:739.387 - 1.571ms returns FALSE
T3938 778:839.411   JLINK_ReadMemU32(0xE0001004, 0x0001 Items, ...)
T3938 778:839.524   Data:  6D AD AB 17
T3938 778:839.561    - DWT_CYCCNT
T3938 778:839.594 - 0.198ms returns 1
T1C50 778:849.077   JLINK_ReadMemEx(0x20000008, 0x0002 Bytes, ..., Flags = 0x02000000)
T1C50 778:849.159    -- CPU_ReadMem(2 bytes @ 0x20000008)
T1C50 778:850.553   Data:  25 93
T1C50 778:850.622 - 1.559ms returns 0x02
T1C50 778:850.690   JLINK_ReadMemEx(0x2000000C, 0x0004 Bytes, ..., Flags = 0x02000000)
T1C50 778:850.779    -- CPU_ReadMem(4 bytes @ 0x2000000C)
T1C50 778:851.484   Data:  25 93 00 00
T1C50 778:851.529 - 0.852ms returns 0x04
T3938 778:852.024 JLINK_IsHalted()
T3938 778:852.496 - 0.510ms returns FALSE
T3938 778:952.368 JLINK_IsHalted()
T3938 778:953.851 - 1.529ms returns FALSE
T3938 779:053.850 JLINK_IsHalted()
T3938 779:055.121 - 1.393ms returns FALSE
T3938 779:155.317 JLINK_IsHalted()
T3938 779:156.800 - 1.524ms returns FALSE
T3938 779:256.939 JLINK_IsHalted()
T3938 779:258.334 - 1.460ms returns FALSE
T3938 779:358.354   JLINK_ReadMemU32(0xE0001004, 0x0001 Items, ...)
T3938 779:358.454   Data:  6D AD AB 17
T3938 779:358.488    - DWT_CYCCNT
T3938 779:358.518 - 0.177ms returns 1
T1C50 779:368.035   JLINK_ReadMemEx(0x20000008, 0x0002 Bytes, ..., Flags = 0x02000000)
T1C50 779:368.143    -- CPU_ReadMem(2 bytes @ 0x20000008)
T1C50 779:369.596   Data:  25 93
T1C50 779:369.661 - 1.640ms returns 0x02
T1C50 779:369.730   JLINK_ReadMemEx(0x2000000C, 0x0004 Bytes, ..., Flags = 0x02000000)
T1C50 779:369.779    -- CPU_ReadMem(4 bytes @ 0x2000000C)
T1C50 779:370.598   Data:  25 93 00 00
T1C50 779:370.659 - 0.942ms returns 0x04
T3938 779:370.915 JLINK_IsHalted()
T3938 779:371.593 - 0.715ms returns FALSE
T3938 779:471.333 JLINK_IsHalted()
T3938 779:472.784 - 1.495ms returns FALSE
T3938 779:572.767 JLINK_IsHalted()
T3938 779:574.095 - 1.356ms returns FALSE
T3938 779:673.845 JLINK_IsHalted()
T3938 779:675.302 - 1.505ms returns FALSE
T3938 779:775.342 JLINK_IsHalted()
T3938 779:776.775 - 1.478ms returns FALSE
T3938 779:876.819   JLINK_ReadMemU32(0xE0001004, 0x0001 Items, ...)
T3938 779:876.912   Data:  6D AD AB 17
T3938 779:876.946    - DWT_CYCCNT
T3938 779:876.976 - 0.169ms returns 1
T1C50 779:886.530   JLINK_ReadMemEx(0x20000008, 0x0002 Bytes, ..., Flags = 0x02000000)
T1C50 779:886.637    -- CPU_ReadMem(2 bytes @ 0x20000008)
T1C50 779:888.124   Data:  25 93
T1C50 779:888.214 - 1.702ms returns 0x02
T1C50 779:888.306   JLINK_ReadMemEx(0x2000000C, 0x0004 Bytes, ..., Flags = 0x02000000)
T1C50 779:888.358    -- CPU_ReadMem(4 bytes @ 0x2000000C)
T1C50 779:889.098   Data:  25 93 00 00
T1C50 779:889.162 - 0.870ms returns 0x04
T3938 779:889.286 JLINK_IsHalted()
T3938 779:890.100 - 0.855ms returns FALSE
T3938 779:989.796 JLINK_IsHalted()
T3938 779:991.161 - 1.417ms returns FALSE
T3938 780:091.328 JLINK_IsHalted()
T3938 780:092.761 - 1.457ms returns FALSE
T3938 780:192.765 JLINK_IsHalted()
T3938 780:194.147 - 1.429ms returns FALSE
T3938 780:294.308 JLINK_IsHalted()
T3938 780:295.638 - 1.372ms returns FALSE
T3938 780:395.796   JLINK_ReadMemU32(0xE0001004, 0x0001 Items, ...)
T3938 780:395.951   Data:  6D AD AB 17
T3938 780:395.988    - DWT_CYCCNT
T3938 780:396.018 - 0.235ms returns 1
T1C50 780:405.122   JLINK_ReadMemEx(0x20000008, 0x0002 Bytes, ..., Flags = 0x02000000)
T1C50 780:405.221    -- CPU_ReadMem(2 bytes @ 0x20000008)
T1C50 780:406.772   Data:  25 93
T1C50 780:406.868 - 1.760ms returns 0x02
T1C50 780:406.961   JLINK_ReadMemEx(0x2000000C, 0x0004 Bytes, ..., Flags = 0x02000000)
T1C50 780:407.017    -- CPU_ReadMem(4 bytes @ 0x2000000C)
T1C50 780:407.667   Data:  25 93 00 00
T1C50 780:407.738 - 0.791ms returns 0x04
T3938 780:407.906 JLINK_IsHalted()
T3938 780:408.595 - 0.732ms returns FALSE
T3938 780:508.186 JLINK_IsHalted()
T3938 780:509.588 - 1.452ms returns FALSE
T3938 780:609.305 JLINK_IsHalted()
T3938 780:610.751 - 1.493ms returns FALSE
T3938 780:710.674 JLINK_IsHalted()
T3938 780:711.955 - 1.325ms returns FALSE
T3938 780:811.698 JLINK_IsHalted()
T3938 780:812.962 - 1.307ms returns FALSE
T3938 780:912.689   JLINK_ReadMemU32(0xE0001004, 0x0001 Items, ...)
T3938 780:912.788   Data:  6D AD AB 17
T3938 780:912.825    - DWT_CYCCNT
T3938 780:912.858 - 0.184ms returns 1
T1C50 780:922.608   JLINK_ReadMemEx(0x20000008, 0x0002 Bytes, ..., Flags = 0x02000000)
T1C50 780:922.704    -- CPU_ReadMem(2 bytes @ 0x20000008)
T1C50 780:924.251   Data:  25 93
T1C50 780:924.347 - 1.755ms returns 0x02
T1C50 780:924.612   JLINK_ReadMemEx(0x2000000C, 0x0004 Bytes, ..., Flags = 0x02000000)
T1C50 780:924.708    -- CPU_ReadMem(4 bytes @ 0x2000000C)
T1C50 780:926.151   Data:  25 93 00 00
T1C50 780:926.250 - 1.654ms returns 0x04
T3938 780:927.348 JLINK_IsHalted()
T3938 780:928.731 - 1.417ms returns FALSE
T3938 781:028.770 JLINK_IsHalted()
T3938 781:030.221 - 1.492ms returns FALSE
T3938 781:130.200 JLINK_IsHalted()
T3938 781:131.528 - 1.355ms returns FALSE
T3938 781:231.222 JLINK_IsHalted()
T3938 781:232.741 - 1.592ms returns FALSE
T3938 781:332.682 JLINK_IsHalted()
T3938 781:334.021 - 1.386ms returns FALSE
T3938 781:433.756   JLINK_ReadMemU32(0xE0001004, 0x0001 Items, ...)
T3938 781:433.857   Data:  6D AD AB 17
T3938 781:433.891    - DWT_CYCCNT
T3938 781:433.921 - 0.178ms returns 1
T1C50 781:443.307   JLINK_ReadMemEx(0x20000008, 0x0002 Bytes, ..., Flags = 0x02000000)
T1C50 781:443.404    -- CPU_ReadMem(2 bytes @ 0x20000008)
T1C50 781:444.685   Data:  25 93
T1C50 781:444.754 - 1.461ms returns 0x02
